T3264 6784:065 SEGGER J-Link V5.02c Log File (0001ms, 35626ms total)
T3264 6784:065 DLL Compiled: Sep 10 2015 17:39:31 (0001ms, 35626ms total)
T3264 6784:065 Logging started @ 2022-08-04 21:56 (0001ms, 35626ms total)
T3264 6784:066 JLINK_SetWarnOutHandler(...) (0000ms, 35626ms total)
T3264 6784:066 JLINK_OpenEx(...)
Firmware: J-Link ARM-OB STM32 compiled Aug 22 2012 19:52:04
Hardware: V7.00
S/N: 20140510
Feature(s): RDI,FlashDL,FlashBP,JFlash,GDBFullDevice "CORTEX-M0+" selected.  returns O.K. (0272ms, 35898ms total)
T3264 6784:338 JLINK_GetEmuCaps()  returns 0xC8EA5873 (0001ms, 35899ms total)
T3264 6784:339 JLINK_TIF_GetAvailable(...) (0001ms, 35900ms total)
T3264 6784:341 JLINK_SetErrorOutHandler(...) (0000ms, 35900ms total)
T3264 6784:341 JLINK_ExecCommand("ProjectFile = "D:\水井资料\水井程序2\STM32G070DMACV1.51_1\MDK-ARM\JLinkSettings.ini"", ...)Device "CORTEX-M0+" selected.  returns 0x00 (0007ms, 35907ms total)
T3264 6784:351 JLINK_ExecCommand("Device = STM32G070RBTx", ...)Device "CORTEX-M0+" selected.  returns 0x00 (0003ms, 35910ms total)
T3264 6784:354 JLINK_ExecCommand("DisableConnectionTimeout", ...)  returns 0x01 (0000ms, 35910ms total)
T3264 6784:354 JLINK_GetHardwareVersion()  returns 0x11170 (0000ms, 35910ms total)
T3264 6784:354 JLINK_GetDLLVersion()  returns 50203 (0000ms, 35910ms total)
T3264 6784:354 JLINK_GetFirmwareString(...) (0000ms, 35910ms total)
T3264 6784:361 JLINK_GetDLLVersion()  returns 50203 (0000ms, 35910ms total)
T3264 6784:361 JLINK_GetCompileDateTime() (0000ms, 35910ms total)
T3264 6784:363 JLINK_GetFirmwareString(...) (0000ms, 35910ms total)
T3264 6784:368 JLINK_GetHardwareVersion()  returns 0x11170 (0000ms, 35910ms total)
T3264 6784:374 JLINK_TIF_Select(JLINKARM_TIF_SWD)  returns 0x00 (0005ms, 35915ms total)
T3264 6784:379 JLINK_SetSpeed(10000) (0001ms, 35916ms total)
T3264 6784:380 JLINK_GetId() >0x108 TIF>Found SWD-DP with ID 0x0BC11477 >0x0D TIF> >0x21 TIF> >0x0D TIF> >0x28 TIF> >0x0D TIF> >0x28 TIF> >0x0D TIF> >0x21 TIF> >0x0D TIF> >0x28 TIF> >0x0D TIF> >0x21 TIF> >0x0D TIF> >0x21 TIF> >0x0D TIF> >0x21 TIF> >0x0D TIF> >0x28 TIF> >0x0D TIF> >0x28 TIF> >0x0D TIF> >0x28 TIF> >0x0D TIF> >0x21 TIF> >0x0D TIF> >0x21 TIF> >0x0D TIF> >0x21 TIF> >0x0D TIF> >0x28 TIF> >0x0D TIF> >0x28 TIF> >0x0D TIF> >0x21 TIF> >0x0D TIF> >0x28 TIF> >0x0D TIF> >0x28 TIF> >0x0D TIF>
 >0x28 TIF> >0x0D TIF> >0x21 TIF> >0x0D TIF> >0x21 TIF> >0x0D TIF> >0x28 TIF> >0x0D TIF> >0x21 TIF> >0x0D TIF> >0x21 TIF>Found Cortex-M0 r0p1, Little endian. -- CPU_ReadMem(4 bytes @ 0xE000EDF0) -- CPU_ReadMem(4 bytes @ 0xE0002000)FPUnit: 4 code (BP) slots and 0 literal slots -- CPU_ReadMem(4 bytes @ 0xE000EDFC) -- CPU_ReadMem(4 bytes @ 0xE0001000) -- CPU_WriteMem(4 bytes @ 0xE0001000)CoreSight components:ROMTbl 0 @ F0000000 -- CPU_ReadMem(16 bytes @ 0xF0000000) -- CPU_ReadMem(16 bytes @ 0xE00FFFF0)
 -- CPU_ReadMem(16 bytes @ 0xE00FFFE0)ROMTbl 0 [0]: F00FF000, CID: B105100D, PID: 000BB4C0 ROM TableROMTbl 1 @ E00FF000 -- CPU_ReadMem(16 bytes @ 0xE00FF000) -- CPU_ReadMem(16 bytes @ 0xE000EFF0) -- CPU_ReadMem(16 bytes @ 0xE000EFE0)ROMTbl 1 [0]: FFF0F000, CID: B105E00D, PID: 000BB008 SCS -- CPU_ReadMem(16 bytes @ 0xE0001FF0) -- CPU_ReadMem(16 bytes @ 0xE0001FE0)ROMTbl 1 [1]: FFF02000, CID: B105E00D, PID: 000BB00A DWT -- CPU_ReadMem(16 bytes @ 0xE0002FF0) -- CPU_ReadMem(16 bytes @ 0xE0002FE0)
ROMTbl 1 [2]: FFF03000, CID: B105E00D, PID: 000BB00B FPB -- CPU_ReadMem(16 bytes @ 0xF0000010) >0x0D TIF> >0x21 TIF>  returns 0x0BC11477 (0161ms, 36077ms total)
T3264 6784:541 JLINK_GetDLLVersion()  returns 50203 (0000ms, 36077ms total)
T3264 6784:541 JLINK_CORE_GetFound()  returns 0x60000FF (0001ms, 36078ms total)
T3264 6784:542 JLINK_GetDebugInfo(0x100) -- Value=0xF0000003  returns 0x00 (0000ms, 36078ms total)
T3264 6784:544 JLINK_GetDebugInfo(0x100) -- Value=0xF0000003  returns 0x00 (0000ms, 36078ms total)
T3264 6784:544 JLINK_GetDebugInfo(0x101)  returns 0xFFFFFFFF (0000ms, 36078ms total)
T3264 6784:544 JLINK_ReadMemEx(0xE0041FF0, 0x0010 Bytes, ..., AccessWidth = 33554436) -- CPU is running -- CPU_ReadMem(16 bytes @ 0xE0041FF0) - Data: 00 00 00 00 00 00 00 00 00 00 00 00 00 00 00 00  returns 0x10 (0001ms, 36079ms total)
T3264 6784:545 JLINK_GetDebugInfo(0x102)  returns 0xFFFFFFFF (0000ms, 36079ms total)
T3264 6784:545 JLINK_GetDebugInfo(0x103)  returns 0xFFFFFFFF (0000ms, 36079ms total)
T3264 6784:545 JLINK_ReadMemEx(0xE0040FF0, 0x0010 Bytes, ..., AccessWidth = 33554436) -- CPU is running -- CPU_ReadMem(16 bytes @ 0xE0040FF0) - Data: 00 00 00 00 00 00 00 00 00 00 00 00 00 00 00 00  returns 0x10 (0001ms, 36080ms total)
T3264 6784:546 JLINK_GetDebugInfo(0x104)  returns 0xFFFFFFFF (0000ms, 36080ms total)
T3264 6784:546 JLINK_GetDebugInfo(0x105)  returns 0xFFFFFFFF (0000ms, 36080ms total)
T3264 6784:546 JLINK_GetDebugInfo(0x106)  returns 0xFFFFFFFF (0000ms, 36080ms total)
T3264 6784:546 JLINK_GetDebugInfo(0x107)  returns 0xFFFFFFFF (0000ms, 36080ms total)
T3264 6784:546 JLINK_GetDebugInfo(0x10C)  returns 0xFFFFFFFF (0000ms, 36080ms total)
T3264 6784:546 JLINK_GetDebugInfo(0x01)  returns 0xFFFFFFFF (0000ms, 36080ms total)
T3264 6784:546 JLINK_GetDeviceFamily()  returns 6 (0000ms, 36080ms total)
T3264 6784:546 JLINK_ReadMemU32(0xE000ED00, 0x0001 Items, ...) -- CPU is running -- CPU_ReadMem(4 bytes @ 0xE000ED00) - Data: 01 C6 0C 41  returns 0x01 (0001ms, 36081ms total)
T3264 6784:547 JLINK_GetDebugInfo(0x10F)  returns 0xFFFFFFFF (0000ms, 36081ms total)
T3264 6784:547 JLINK_SetResetType(JLINKARM_RESET_TYPE_NORMAL)  returns JLINKARM_RESET_TYPE_NORMAL (0000ms, 36081ms total)
T3264 6784:547 JLINK_Reset() -- CPU is running -- CPU_WriteMem(4 bytes @ 0xE000EDF0) -- CPU is running -- CPU_WriteMem(4 bytes @ 0xE000EDFC) >0x35 TIF> -- CPU is running -- CPU_WriteMem(4 bytes @ 0xE000ED0C) -- CPU is running -- CPU_ReadMem(4 bytes @ 0xE000EDF0) -- CPU is running -- CPU_ReadMem(4 bytes @ 0xE000EDF0) -- CPU is running -- CPU_WriteMem(4 bytes @ 0xE000EDF0) -- CPU is running -- CPU_WriteMem(4 bytes @ 0xE000EDFC) -- CPU is running -- CPU_ReadMem(4 bytes @ 0xE000EDF0)
 -- CPU_WriteMem(4 bytes @ 0xE0002000) -- CPU_ReadMem(4 bytes @ 0xE000EDFC) -- CPU_ReadMem(4 bytes @ 0xE0001000) -- CPU_WriteMem(4 bytes @ 0xE0001000) (0027ms, 36108ms total)
T3264 6784:574 JLINK_Halt()  returns 0x00 (0000ms, 36108ms total)
T3264 6784:574 JLINK_ReadMemU32(0xE000EDF0, 0x0001 Items, ...) -- CPU_ReadMem(4 bytes @ 0xE000EDF0) - Data: 03 00 03 01  returns 0x01 (0001ms, 36109ms total)
T3264 6784:575 JLINK_WriteU32(0xE000EDF0, 0xA05F0003) -- CPU_WriteMem(4 bytes @ 0xE000EDF0)  returns 0x00 (0001ms, 36110ms total)
T3264 6784:576 JLINK_WriteU32(0xE000EDFC, 0x01000000) -- CPU_WriteMem(4 bytes @ 0xE000EDFC)  returns 0x00 (0001ms, 36111ms total)
T3264 6784:584 JLINK_GetHWStatus(...)  returns 0x00 (0002ms, 36113ms total)
T3264 6784:594 JLINK_GetNumBPUnits(Type = 0xFFFFFF00)  returns 0x04 (0000ms, 36113ms total)
T3264 6784:594 JLINK_GetNumBPUnits(Type = 0xF0)  returns 0x2000 (0000ms, 36113ms total)
T3264 6784:594 JLINK_GetNumWPUnits()  returns 0x02 (0000ms, 36113ms total)
T3264 6784:600 JLINK_GetSpeed()  returns 0xFA0 (0000ms, 36113ms total)
T3264 6784:606 JLINK_ReadMemU32(0xE000E004, 0x0001 Items, ...) -- CPU_ReadMem(4 bytes @ 0xE000E004) - Data: 00 00 00 00  returns 0x01 (0001ms, 36114ms total)
T3264 6784:607 JLINK_Halt()  returns 0x00 (0000ms, 36114ms total)
T3264 6784:607 JLINK_IsHalted()  returns TRUE (0000ms, 36114ms total)
T3264 6784:610 JLINK_WriteMem(0x20000000, 0x0114 Bytes, ...) - Data: 00 BE 0A E0 0D 78 2D 06 68 40 08 24 40 00 00 D3 ... -- CPU_WriteMem(276 bytes @ 0x20000000)  returns 0x114 (0004ms, 36118ms total)
T3264 6784:614 JLINK_WriteReg(R0, 0x08000000)  returns 0x00 (0000ms, 36118ms total)
T3264 6784:614 JLINK_WriteReg(R1, 0x03D09000)  returns 0x00 (0000ms, 36118ms total)
T3264 6784:614 JLINK_WriteReg(R2, 0x00000001)  returns 0x00 (0000ms, 36118ms total)
T3264 6784:614 JLINK_WriteReg(R3, 0x00000000)  returns 0x00 (0000ms, 36118ms total)
T3264 6784:614 JLINK_WriteReg(R4, 0x00000000)  returns 0x00 (0000ms, 36118ms total)
T3264 6784:614 JLINK_WriteReg(R5, 0x00000000)  returns 0x00 (0000ms, 36118ms total)
T3264 6784:614 JLINK_WriteReg(R6, 0x00000000)  returns 0x00 (0000ms, 36118ms total)
T3264 6784:614 JLINK_WriteReg(R7, 0x00000000)  returns 0x00 (0000ms, 36118ms total)
T3264 6784:614 JLINK_WriteReg(R8, 0x00000000)  returns 0x00 (0000ms, 36118ms total)
T3264 6784:614 JLINK_WriteReg(R9, 0x20000110)  returns 0x00 (0000ms, 36118ms total)
T3264 6784:614 JLINK_WriteReg(R10, 0x00000000)  returns 0x00 (0000ms, 36118ms total)
T3264 6784:614 JLINK_WriteReg(R11, 0x00000000)  returns 0x00 (0000ms, 36118ms total)
T3264 6784:614 JLINK_WriteReg(R12, 0x00000000)  returns 0x00 (0000ms, 36118ms total)
T3264 6784:614 JLINK_WriteReg(R13 (SP), 0x20001000)  returns 0x00 (0000ms, 36118ms total)
T3264 6784:614 JLINK_WriteReg(R14, 0x20000001)  returns 0x00 (0000ms, 36118ms total)
T3264 6784:614 JLINK_WriteReg(R15 (PC), 0x2000002C)  returns 0x00 (0000ms, 36118ms total)
T3264 6784:614 JLINK_WriteReg(XPSR, 0x01000000)  returns 0x00 (0000ms, 36118ms total)
T3264 6784:614 JLINK_WriteReg(MSP, 0x20001000)  returns 0x00 (0000ms, 36118ms total)
T3264 6784:614 JLINK_WriteReg(PSP, 0x20001000)  returns 0x00 (0000ms, 36118ms total)
T3264 6784:614 JLINK_WriteReg(CFBP, 0x00000000)  returns 0x00 (0000ms, 36118ms total)
T3264 6784:614 JLINK_SetBPEx(Addr = 0x20000000, Type = 0xFFFFFFF2) -- CPU_ReadMem(4 bytes @ 0x20000000) -- CPU_WriteMem(4 bytes @ 0x20000000) -- CPU_ReadMem(4 bytes @ 0x20000000) -- CPU_WriteMem(4 bytes @ 0x20000000) -- CPU_ReadMem(2 bytes @ 0x20000000)  returns 0x00000001 (0005ms, 36123ms total)
T3264 6784:619 JLINK_Go() -- CPU_WriteMem(2 bytes @ 0x20000000) -- CPU_ReadMem(4 bytes @ 0xE0001000) -- CPU_WriteMem(4 bytes @ 0xE0001000) -- CPU_WriteMem(4 bytes @ 0xE0002008) -- CPU_WriteMem(4 bytes @ 0xE000200C) -- CPU_WriteMem(4 bytes @ 0xE0002010) -- CPU_WriteMem(4 bytes @ 0xE0002014) -- CPU_WriteMem(4 bytes @ 0xE0001004) (0012ms, 36135ms total)
T3264 6784:631 JLINK_IsHalted() -- CPU_ReadMem(2 bytes @ 0x20000000)  returns TRUE (0006ms, 36141ms total)
T3264 6784:637 JLINK_ReadReg(R15 (PC))  returns 0x20000000 (0000ms, 36135ms total)
T3264 6784:637 JLINK_ClrBPEx(BPHandle = 0x00000001)  returns 0x00 (0000ms, 36135ms total)
T3264 6784:637 JLINK_ReadReg(R0)  returns 0x00000000 (0000ms, 36135ms total)
T3264 6784:637 JLINK_WriteReg(R0, 0x08000000)  returns 0x00 (0000ms, 36135ms total)
T3264 6784:637 JLINK_WriteReg(R1, 0x00000800)  returns 0x00 (0000ms, 36135ms total)
T3264 6784:637 JLINK_WriteReg(R2, 0x000000FF)  returns 0x00 (0000ms, 36135ms total)
T3264 6784:637 JLINK_WriteReg(R3, 0x00000000)  returns 0x00 (0000ms, 36135ms total)
T3264 6784:637 JLINK_WriteReg(R4, 0x00000000)  returns 0x00 (0000ms, 36135ms total)
T3264 6784:637 JLINK_WriteReg(R5, 0x00000000)  returns 0x00 (0000ms, 36135ms total)
T3264 6784:637 JLINK_WriteReg(R6, 0x00000000)  returns 0x00 (0000ms, 36135ms total)
T3264 6784:637 JLINK_WriteReg(R7, 0x00000000)  returns 0x00 (0000ms, 36135ms total)
T3264 6784:637 JLINK_WriteReg(R8, 0x00000000)  returns 0x00 (0000ms, 36135ms total)
T3264 6784:637 JLINK_WriteReg(R9, 0x20000110)  returns 0x00 (0000ms, 36135ms total)
T3264 6784:637 JLINK_WriteReg(R10, 0x00000000)  returns 0x00 (0000ms, 36135ms total)
T3264 6784:637 JLINK_WriteReg(R11, 0x00000000)  returns 0x00 (0000ms, 36135ms total)
T3264 6784:637 JLINK_WriteReg(R12, 0x00000000)  returns 0x00 (0000ms, 36135ms total)
T3264 6784:637 JLINK_WriteReg(R13 (SP), 0x20001000)  returns 0x00 (0000ms, 36135ms total)
T3264 6784:637 JLINK_WriteReg(R14, 0x20000001)  returns 0x00 (0000ms, 36135ms total)
T3264 6784:637 JLINK_WriteReg(R15 (PC), 0x2000004A)  returns 0x00 (0000ms, 36135ms total)
T3264 6784:637 JLINK_WriteReg(XPSR, 0x01000000)  returns 0x00 (0000ms, 36135ms total)
T3264 6784:637 JLINK_WriteReg(MSP, 0x20001000)  returns 0x00 (0000ms, 36135ms total)
T3264 6784:637 JLINK_WriteReg(PSP, 0x20001000)  returns 0x00 (0000ms, 36135ms total)
T3264 6784:637 JLINK_WriteReg(CFBP, 0x00000000)  returns 0x00 (0000ms, 36135ms total)
T3264 6784:637 JLINK_SetBPEx(Addr = 0x20000000, Type = 0xFFFFFFF2)  returns 0x00000002 (0000ms, 36135ms total)
T3264 6784:637 JLINK_Go() -- CPU_ReadMem(4 bytes @ 0xE0001000) -- CPU_WriteMem(4 bytes @ 0xE0001000) (0005ms, 36140ms total)
T3264 6784:642 JLINK_IsHalted() -- CPU_ReadMem(2 bytes @ 0x20000000)  returns TRUE (0005ms, 36145ms total)
T3264 6784:647 JLINK_ReadReg(R15 (PC))  returns 0x20000000 (0000ms, 36140ms total)
T3264 6784:647 JLINK_ClrBPEx(BPHandle = 0x00000002)  returns 0x00 (0000ms, 36140ms total)
T3264 6784:647 JLINK_ReadReg(R0)  returns 0x00000001 (0000ms, 36140ms total)
T3264 6784:647 JLINK_WriteReg(R0, 0x08000000)  returns 0x00 (0000ms, 36140ms total)
T3264 6784:647 JLINK_WriteReg(R1, 0x00000800)  returns 0x00 (0000ms, 36140ms total)
T3264 6784:647 JLINK_WriteReg(R2, 0x000000FF)  returns 0x00 (0000ms, 36140ms total)
T3264 6784:647 JLINK_WriteReg(R3, 0x00000000)  returns 0x00 (0000ms, 36140ms total)
T3264 6784:647 JLINK_WriteReg(R4, 0x00000000)  returns 0x00 (0000ms, 36140ms total)
T3264 6784:647 JLINK_WriteReg(R5, 0x00000000)  returns 0x00 (0000ms, 36140ms total)
T3264 6784:647 JLINK_WriteReg(R6, 0x00000000)  returns 0x00 (0000ms, 36140ms total)
T3264 6784:647 JLINK_WriteReg(R7, 0x00000000)  returns 0x00 (0000ms, 36140ms total)
T3264 6784:647 JLINK_WriteReg(R8, 0x00000000)  returns 0x00 (0000ms, 36140ms total)
T3264 6784:647 JLINK_WriteReg(R9, 0x20000110)  returns 0x00 (0000ms, 36140ms total)
T3264 6784:647 JLINK_WriteReg(R10, 0x00000000)  returns 0x00 (0000ms, 36140ms total)
T3264 6784:647 JLINK_WriteReg(R11, 0x00000000)  returns 0x00 (0000ms, 36140ms total)
T3264 6784:647 JLINK_WriteReg(R12, 0x00000000)  returns 0x00 (0000ms, 36140ms total)
T3264 6784:647 JLINK_WriteReg(R13 (SP), 0x20001000)  returns 0x00 (0000ms, 36140ms total)
T3264 6784:647 JLINK_WriteReg(R14, 0x20000001)  returns 0x00 (0000ms, 36140ms total)
T3264 6784:647 JLINK_WriteReg(R15 (PC), 0x20000084)  returns 0x00 (0000ms, 36140ms total)
T3264 6784:647 JLINK_WriteReg(XPSR, 0x01000000)  returns 0x00 (0000ms, 36140ms total)
T3264 6784:647 JLINK_WriteReg(MSP, 0x20001000)  returns 0x00 (0000ms, 36140ms total)
T3264 6784:647 JLINK_WriteReg(PSP, 0x20001000)  returns 0x00 (0000ms, 36140ms total)
T3264 6784:647 JLINK_WriteReg(CFBP, 0x00000000)  returns 0x00 (0000ms, 36140ms total)
T3264 6784:647 JLINK_SetBPEx(Addr = 0x20000000, Type = 0xFFFFFFF2)  returns 0x00000003 (0000ms, 36140ms total)
T3264 6784:647 JLINK_Go() -- CPU_ReadMem(4 bytes @ 0xE0001000) -- CPU_WriteMem(4 bytes @ 0xE0001000) (0004ms, 36144ms total)
T3264 6784:651 JLINK_IsHalted()  returns FALSE (0001ms, 36145ms total)
T3264 6784:688 JLINK_IsHalted() -- CPU_ReadMem(2 bytes @ 0x20000000)  returns TRUE (0005ms, 36149ms total)
T3264 6784:693 JLINK_ReadReg(R15 (PC))  returns 0x20000000 (0000ms, 36144ms total)
T3264 6784:693 JLINK_ClrBPEx(BPHandle = 0x00000003)  returns 0x00 (0000ms, 36144ms total)
T3264 6784:693 JLINK_ReadReg(R0)  returns 0x00000000 (0000ms, 36144ms total)
T3264 6784:693 JLINK_WriteReg(R0, 0x08000800)  returns 0x00 (0000ms, 36144ms total)
T3264 6784:693 JLINK_WriteReg(R1, 0x00000800)  returns 0x00 (0000ms, 36144ms total)
T3264 6784:693 JLINK_WriteReg(R2, 0x000000FF)  returns 0x00 (0000ms, 36144ms total)
T3264 6784:693 JLINK_WriteReg(R3, 0x00000000)  returns 0x00 (0000ms, 36144ms total)
T3264 6784:693 JLINK_WriteReg(R4, 0x00000000)  returns 0x00 (0000ms, 36144ms total)
T3264 6784:693 JLINK_WriteReg(R5, 0x00000000)  returns 0x00 (0000ms, 36144ms total)
T3264 6784:693 JLINK_WriteReg(R6, 0x00000000)  returns 0x00 (0000ms, 36144ms total)
T3264 6784:693 JLINK_WriteReg(R7, 0x00000000)  returns 0x00 (0000ms, 36144ms total)
T3264 6784:693 JLINK_WriteReg(R8, 0x00000000)  returns 0x00 (0000ms, 36144ms total)
T3264 6784:693 JLINK_WriteReg(R9, 0x20000110)  returns 0x00 (0000ms, 36144ms total)
T3264 6784:693 JLINK_WriteReg(R10, 0x00000000)  returns 0x00 (0000ms, 36144ms total)
T3264 6784:693 JLINK_WriteReg(R11, 0x00000000)  returns 0x00 (0000ms, 36144ms total)
T3264 6784:693 JLINK_WriteReg(R12, 0x00000000)  returns 0x00 (0000ms, 36144ms total)
T3264 6784:693 JLINK_WriteReg(R13 (SP), 0x20001000)  returns 0x00 (0000ms, 36144ms total)
T3264 6784:693 JLINK_WriteReg(R14, 0x20000001)  returns 0x00 (0000ms, 36144ms total)
T3264 6784:693 JLINK_WriteReg(R15 (PC), 0x2000004A)  returns 0x00 (0000ms, 36144ms total)
T3264 6784:693 JLINK_WriteReg(XPSR, 0x01000000)  returns 0x00 (0000ms, 36144ms total)
T3264 6784:693 JLINK_WriteReg(MSP, 0x20001000)  returns 0x00 (0000ms, 36144ms total)
T3264 6784:693 JLINK_WriteReg(PSP, 0x20001000)  returns 0x00 (0000ms, 36144ms total)
T3264 6784:693 JLINK_WriteReg(CFBP, 0x00000000)  returns 0x00 (0000ms, 36144ms total)
T3264 6784:693 JLINK_SetBPEx(Addr = 0x20000000, Type = 0xFFFFFFF2)  returns 0x00000004 (0000ms, 36144ms total)
T3264 6784:694 JLINK_Go() -- CPU_ReadMem(4 bytes @ 0xE0001000) -- CPU_WriteMem(4 bytes @ 0xE0001000) (0005ms, 36149ms total)
T3264 6784:699 JLINK_IsHalted() -- CPU_ReadMem(2 bytes @ 0x20000000)  returns TRUE (0006ms, 36155ms total)
T3264 6784:705 JLINK_ReadReg(R15 (PC))  returns 0x20000000 (0000ms, 36149ms total)
T3264 6784:705 JLINK_ClrBPEx(BPHandle = 0x00000004)  returns 0x00 (0000ms, 36149ms total)
T3264 6784:705 JLINK_ReadReg(R0)  returns 0x00000001 (0000ms, 36149ms total)
T3264 6784:705 JLINK_WriteReg(R0, 0x08000800)  returns 0x00 (0000ms, 36149ms total)
T3264 6784:705 JLINK_WriteReg(R1, 0x00000800)  returns 0x00 (0000ms, 36149ms total)
T3264 6784:705 JLINK_WriteReg(R2, 0x000000FF)  returns 0x00 (0000ms, 36149ms total)
T3264 6784:705 JLINK_WriteReg(R3, 0x00000000)  returns 0x00 (0000ms, 36149ms total)
T3264 6784:705 JLINK_WriteReg(R4, 0x00000000)  returns 0x00 (0000ms, 36149ms total)
T3264 6784:705 JLINK_WriteReg(R5, 0x00000000)  returns 0x00 (0000ms, 36149ms total)
T3264 6784:705 JLINK_WriteReg(R6, 0x00000000)  returns 0x00 (0000ms, 36149ms total)
T3264 6784:705 JLINK_WriteReg(R7, 0x00000000)  returns 0x00 (0000ms, 36149ms total)
T3264 6784:705 JLINK_WriteReg(R8, 0x00000000)  returns 0x00 (0000ms, 36149ms total)
T3264 6784:705 JLINK_WriteReg(R9, 0x20000110)  returns 0x00 (0000ms, 36149ms total)
T3264 6784:705 JLINK_WriteReg(R10, 0x00000000)  returns 0x00 (0000ms, 36149ms total)
T3264 6784:705 JLINK_WriteReg(R11, 0x00000000)  returns 0x00 (0000ms, 36149ms total)
T3264 6784:705 JLINK_WriteReg(R12, 0x00000000)  returns 0x00 (0000ms, 36149ms total)
T3264 6784:705 JLINK_WriteReg(R13 (SP), 0x20001000)  returns 0x00 (0000ms, 36149ms total)
T3264 6784:705 JLINK_WriteReg(R14, 0x20000001)  returns 0x00 (0000ms, 36149ms total)
T3264 6784:705 JLINK_WriteReg(R15 (PC), 0x20000084)  returns 0x00 (0000ms, 36149ms total)
T3264 6784:705 JLINK_WriteReg(XPSR, 0x01000000)  returns 0x00 (0000ms, 36149ms total)
T3264 6784:705 JLINK_WriteReg(MSP, 0x20001000)  returns 0x00 (0000ms, 36149ms total)
T3264 6784:705 JLINK_WriteReg(PSP, 0x20001000)  returns 0x00 (0000ms, 36149ms total)
T3264 6784:705 JLINK_WriteReg(CFBP, 0x00000000)  returns 0x00 (0000ms, 36149ms total)
T3264 6784:705 JLINK_SetBPEx(Addr = 0x20000000, Type = 0xFFFFFFF2)  returns 0x00000005 (0000ms, 36149ms total)
T3264 6784:705 JLINK_Go() -- CPU_ReadMem(4 bytes @ 0xE0001000) -- CPU_WriteMem(4 bytes @ 0xE0001000) (0004ms, 36153ms total)
T3264 6784:709 JLINK_IsHalted()  returns FALSE (0001ms, 36154ms total)
T3264 6784:711 JLINK_IsHalted()  returns FALSE (0001ms, 36154ms total)
T3264 6784:713 JLINK_IsHalted()  returns FALSE (0001ms, 36154ms total)
T3264 6784:715 JLINK_IsHalted()  returns FALSE (0000ms, 36153ms total)
T3264 6784:716 JLINK_IsHalted()  returns FALSE (0001ms, 36154ms total)
T3264 6784:718 JLINK_IsHalted()  returns FALSE (0000ms, 36153ms total)
T3264 6784:719 JLINK_IsHalted()  returns FALSE (0000ms, 36153ms total)
T3264 6784:720 JLINK_IsHalted()  returns FALSE (0001ms, 36154ms total)
T3264 6784:722 JLINK_IsHalted()  returns FALSE (0001ms, 36154ms total)
T3264 6784:724 JLINK_IsHalted()  returns FALSE (0001ms, 36154ms total)
T3264 6784:726 JLINK_IsHalted()  returns FALSE (0001ms, 36154ms total)
T3264 6784:730 JLINK_IsHalted() -- CPU_ReadMem(2 bytes @ 0x20000000)  returns TRUE (0007ms, 36160ms total)
T3264 6784:737 JLINK_ReadReg(R15 (PC))  returns 0x20000000 (0000ms, 36153ms total)
T3264 6784:737 JLINK_ClrBPEx(BPHandle = 0x00000005)  returns 0x00 (0000ms, 36153ms total)
T3264 6784:737 JLINK_ReadReg(R0)  returns 0x00000000 (0000ms, 36153ms total)
T3264 6784:738 JLINK_WriteReg(R0, 0x08001000)  returns 0x00 (0000ms, 36153ms total)
T3264 6784:738 JLINK_WriteReg(R1, 0x00000800)  returns 0x00 (0000ms, 36153ms total)
T3264 6784:738 JLINK_WriteReg(R2, 0x000000FF)  returns 0x00 (0000ms, 36153ms total)
T3264 6784:738 JLINK_WriteReg(R3, 0x00000000)  returns 0x00 (0000ms, 36153ms total)
T3264 6784:738 JLINK_WriteReg(R4, 0x00000000)  returns 0x00 (0000ms, 36153ms total)
T3264 6784:738 JLINK_WriteReg(R5, 0x00000000)  returns 0x00 (0000ms, 36153ms total)
T3264 6784:738 JLINK_WriteReg(R6, 0x00000000)  returns 0x00 (0000ms, 36153ms total)
T3264 6784:738 JLINK_WriteReg(R7, 0x00000000)  returns 0x00 (0000ms, 36153ms total)
T3264 6784:738 JLINK_WriteReg(R8, 0x00000000)  returns 0x00 (0000ms, 36153ms total)
T3264 6784:738 JLINK_WriteReg(R9, 0x20000110)  returns 0x00 (0000ms, 36153ms total)
T3264 6784:738 JLINK_WriteReg(R10, 0x00000000)  returns 0x00 (0000ms, 36153ms total)
T3264 6784:738 JLINK_WriteReg(R11, 0x00000000)  returns 0x00 (0000ms, 36153ms total)
T3264 6784:738 JLINK_WriteReg(R12, 0x00000000)  returns 0x00 (0000ms, 36153ms total)
T3264 6784:738 JLINK_WriteReg(R13 (SP), 0x20001000)  returns 0x00 (0000ms, 36153ms total)
T3264 6784:738 JLINK_WriteReg(R14, 0x20000001)  returns 0x00 (0000ms, 36153ms total)
T3264 6784:738 JLINK_WriteReg(R15 (PC), 0x2000004A)  returns 0x00 (0000ms, 36153ms total)
T3264 6784:738 JLINK_WriteReg(XPSR, 0x01000000)  returns 0x00 (0000ms, 36153ms total)
T3264 6784:738 JLINK_WriteReg(MSP, 0x20001000)  returns 0x00 (0000ms, 36153ms total)
T3264 6784:738 JLINK_WriteReg(PSP, 0x20001000)  returns 0x00 (0000ms, 36153ms total)
T3264 6784:738 JLINK_WriteReg(CFBP, 0x00000000)  returns 0x00 (0000ms, 36153ms total)
T3264 6784:738 JLINK_SetBPEx(Addr = 0x20000000, Type = 0xFFFFFFF2)  returns 0x00000006 (0000ms, 36153ms total)
T3264 6784:738 JLINK_Go() -- CPU_ReadMem(4 bytes @ 0xE0001000) -- CPU_WriteMem(4 bytes @ 0xE0001000) (0006ms, 36159ms total)
T3264 6784:744 JLINK_IsHalted() -- CPU_ReadMem(2 bytes @ 0x20000000)  returns TRUE (0004ms, 36163ms total)
T3264 6784:748 JLINK_ReadReg(R15 (PC))  returns 0x20000000 (0000ms, 36159ms total)
T3264 6784:748 JLINK_ClrBPEx(BPHandle = 0x00000006)  returns 0x00 (0000ms, 36159ms total)
T3264 6784:748 JLINK_ReadReg(R0)  returns 0x00000001 (0000ms, 36159ms total)
T3264 6784:748 JLINK_WriteReg(R0, 0x08001000)  returns 0x00 (0000ms, 36159ms total)
T3264 6784:748 JLINK_WriteReg(R1, 0x00000800)  returns 0x00 (0000ms, 36159ms total)
T3264 6784:748 JLINK_WriteReg(R2, 0x000000FF)  returns 0x00 (0000ms, 36159ms total)
T3264 6784:748 JLINK_WriteReg(R3, 0x00000000)  returns 0x00 (0000ms, 36159ms total)
T3264 6784:748 JLINK_WriteReg(R4, 0x00000000)  returns 0x00 (0000ms, 36159ms total)
T3264 6784:748 JLINK_WriteReg(R5, 0x00000000)  returns 0x00 (0000ms, 36159ms total)
T3264 6784:748 JLINK_WriteReg(R6, 0x00000000)  returns 0x00 (0001ms, 36160ms total)
T3264 6784:749 JLINK_WriteReg(R7, 0x00000000)  returns 0x00 (0000ms, 36160ms total)
T3264 6784:749 JLINK_WriteReg(R8, 0x00000000)  returns 0x00 (0000ms, 36160ms total)
T3264 6784:749 JLINK_WriteReg(R9, 0x20000110)  returns 0x00 (0000ms, 36160ms total)
T3264 6784:749 JLINK_WriteReg(R10, 0x00000000)  returns 0x00 (0000ms, 36160ms total)
T3264 6784:749 JLINK_WriteReg(R11, 0x00000000)  returns 0x00 (0000ms, 36160ms total)
T3264 6784:749 JLINK_WriteReg(R12, 0x00000000)  returns 0x00 (0000ms, 36160ms total)
T3264 6784:749 JLINK_WriteReg(R13 (SP), 0x20001000)  returns 0x00 (0000ms, 36160ms total)
T3264 6784:749 JLINK_WriteReg(R14, 0x20000001)  returns 0x00 (0000ms, 36160ms total)
T3264 6784:749 JLINK_WriteReg(R15 (PC), 0x20000084)  returns 0x00 (0000ms, 36160ms total)
T3264 6784:749 JLINK_WriteReg(XPSR, 0x01000000)  returns 0x00 (0000ms, 36160ms total)
T3264 6784:749 JLINK_WriteReg(MSP, 0x20001000)  returns 0x00 (0000ms, 36160ms total)
T3264 6784:749 JLINK_WriteReg(PSP, 0x20001000)  returns 0x00 (0000ms, 36160ms total)
T3264 6784:749 JLINK_WriteReg(CFBP, 0x00000000)  returns 0x00 (0000ms, 36160ms total)
T3264 6784:749 JLINK_SetBPEx(Addr = 0x20000000, Type = 0xFFFFFFF2)  returns 0x00000007 (0000ms, 36160ms total)
T3264 6784:749 JLINK_Go() -- CPU_ReadMem(4 bytes @ 0xE0001000) -- CPU_WriteMem(4 bytes @ 0xE0001000) (0004ms, 36164ms total)
T3264 6784:753 JLINK_IsHalted()  returns FALSE (0001ms, 36165ms total)
T3264 6784:755 JLINK_IsHalted()  returns FALSE (0000ms, 36164ms total)
T3264 6784:756 JLINK_IsHalted()  returns FALSE (0000ms, 36164ms total)
T3264 6784:757 JLINK_IsHalted()  returns FALSE (0000ms, 36164ms total)
T3264 6784:758 JLINK_IsHalted()  returns FALSE (0000ms, 36164ms total)
T3264 6784:759 JLINK_IsHalted()  returns FALSE (0000ms, 36164ms total)
T3264 6784:760 JLINK_IsHalted()  returns FALSE (0000ms, 36164ms total)
T3264 6784:763 JLINK_IsHalted()  returns FALSE (0001ms, 36165ms total)
T3264 6784:765 JLINK_IsHalted()  returns FALSE (0001ms, 36165ms total)
T3264 6784:767 JLINK_IsHalted()  returns FALSE (0001ms, 36165ms total)
T3264 6784:769 JLINK_IsHalted()  returns FALSE (0001ms, 36165ms total)
T3264 6784:771 JLINK_IsHalted()  returns FALSE (0001ms, 36165ms total)
T3264 6784:773 JLINK_IsHalted()  returns FALSE (0001ms, 36165ms total)
T3264 6784:775 JLINK_IsHalted()  returns FALSE (0001ms, 36165ms total)
T3264 6784:779 JLINK_IsHalted() -- CPU_ReadMem(2 bytes @ 0x20000000)  returns TRUE (0007ms, 36171ms total)
T3264 6784:786 JLINK_ReadReg(R15 (PC))  returns 0x20000000 (0000ms, 36164ms total)
T3264 6784:786 JLINK_ClrBPEx(BPHandle = 0x00000007)  returns 0x00 (0000ms, 36164ms total)
T3264 6784:786 JLINK_ReadReg(R0)  returns 0x00000000 (0000ms, 36164ms total)
T3264 6784:786 JLINK_WriteReg(R0, 0x08001800)  returns 0x00 (0000ms, 36164ms total)
T3264 6784:786 JLINK_WriteReg(R1, 0x00000800)  returns 0x00 (0000ms, 36164ms total)
T3264 6784:786 JLINK_WriteReg(R2, 0x000000FF)  returns 0x00 (0000ms, 36164ms total)
T3264 6784:786 JLINK_WriteReg(R3, 0x00000000)  returns 0x00 (0000ms, 36164ms total)
T3264 6784:786 JLINK_WriteReg(R4, 0x00000000)  returns 0x00 (0000ms, 36164ms total)
T3264 6784:786 JLINK_WriteReg(R5, 0x00000000)  returns 0x00 (0000ms, 36164ms total)
T3264 6784:786 JLINK_WriteReg(R6, 0x00000000)  returns 0x00 (0000ms, 36164ms total)
T3264 6784:786 JLINK_WriteReg(R7, 0x00000000)  returns 0x00 (0000ms, 36164ms total)
T3264 6784:786 JLINK_WriteReg(R8, 0x00000000)  returns 0x00 (0000ms, 36164ms total)
T3264 6784:786 JLINK_WriteReg(R9, 0x20000110)  returns 0x00 (0000ms, 36164ms total)
T3264 6784:786 JLINK_WriteReg(R10, 0x00000000)  returns 0x00 (0000ms, 36164ms total)
T3264 6784:786 JLINK_WriteReg(R11, 0x00000000)  returns 0x00 (0000ms, 36164ms total)
T3264 6784:786 JLINK_WriteReg(R12, 0x00000000)  returns 0x00 (0000ms, 36164ms total)
T3264 6784:786 JLINK_WriteReg(R13 (SP), 0x20001000)  returns 0x00 (0000ms, 36164ms total)
T3264 6784:786 JLINK_WriteReg(R14, 0x20000001)  returns 0x00 (0000ms, 36164ms total)
T3264 6784:786 JLINK_WriteReg(R15 (PC), 0x2000004A)  returns 0x00 (0000ms, 36164ms total)
T3264 6784:786 JLINK_WriteReg(XPSR, 0x01000000)  returns 0x00 (0000ms, 36164ms total)
T3264 6784:786 JLINK_WriteReg(MSP, 0x20001000)  returns 0x00 (0000ms, 36164ms total)
T3264 6784:786 JLINK_WriteReg(PSP, 0x20001000)  returns 0x00 (0000ms, 36164ms total)
T3264 6784:786 JLINK_WriteReg(CFBP, 0x00000000)  returns 0x00 (0000ms, 36164ms total)
T3264 6784:786 JLINK_SetBPEx(Addr = 0x20000000, Type = 0xFFFFFFF2)  returns 0x00000008 (0000ms, 36164ms total)
T3264 6784:786 JLINK_Go() -- CPU_ReadMem(4 bytes @ 0xE0001000) -- CPU_WriteMem(4 bytes @ 0xE0001000) (0007ms, 36171ms total)
T3264 6784:793 JLINK_IsHalted() -- CPU_ReadMem(2 bytes @ 0x20000000)  returns TRUE (0005ms, 36176ms total)
T3264 6784:798 JLINK_ReadReg(R15 (PC))  returns 0x20000000 (0000ms, 36171ms total)
T3264 6784:798 JLINK_ClrBPEx(BPHandle = 0x00000008)  returns 0x00 (0000ms, 36171ms total)
T3264 6784:798 JLINK_ReadReg(R0)  returns 0x00000001 (0000ms, 36171ms total)
T3264 6784:798 JLINK_WriteReg(R0, 0x08001800)  returns 0x00 (0000ms, 36171ms total)
T3264 6784:798 JLINK_WriteReg(R1, 0x00000800)  returns 0x00 (0000ms, 36171ms total)
T3264 6784:798 JLINK_WriteReg(R2, 0x000000FF)  returns 0x00 (0000ms, 36171ms total)
T3264 6784:798 JLINK_WriteReg(R3, 0x00000000)  returns 0x00 (0000ms, 36171ms total)
T3264 6784:798 JLINK_WriteReg(R4, 0x00000000)  returns 0x00 (0000ms, 36171ms total)
T3264 6784:798 JLINK_WriteReg(R5, 0x00000000)  returns 0x00 (0000ms, 36171ms total)
T3264 6784:798 JLINK_WriteReg(R6, 0x00000000)  returns 0x00 (0000ms, 36171ms total)
T3264 6784:798 JLINK_WriteReg(R7, 0x00000000)  returns 0x00 (0000ms, 36171ms total)
T3264 6784:798 JLINK_WriteReg(R8, 0x00000000)  returns 0x00 (0000ms, 36171ms total)
T3264 6784:798 JLINK_WriteReg(R9, 0x20000110)  returns 0x00 (0000ms, 36171ms total)
T3264 6784:798 JLINK_WriteReg(R10, 0x00000000)  returns 0x00 (0000ms, 36171ms total)
T3264 6784:798 JLINK_WriteReg(R11, 0x00000000)  returns 0x00 (0000ms, 36171ms total)
T3264 6784:798 JLINK_WriteReg(R12, 0x00000000)  returns 0x00 (0000ms, 36171ms total)
T3264 6784:798 JLINK_WriteReg(R13 (SP), 0x20001000)  returns 0x00 (0000ms, 36171ms total)
T3264 6784:798 JLINK_WriteReg(R14, 0x20000001)  returns 0x00 (0000ms, 36171ms total)
T3264 6784:798 JLINK_WriteReg(R15 (PC), 0x20000084)  returns 0x00 (0000ms, 36171ms total)
T3264 6784:798 JLINK_WriteReg(XPSR, 0x01000000)  returns 0x00 (0000ms, 36171ms total)
T3264 6784:798 JLINK_WriteReg(MSP, 0x20001000)  returns 0x00 (0000ms, 36171ms total)
T3264 6784:798 JLINK_WriteReg(PSP, 0x20001000)  returns 0x00 (0000ms, 36171ms total)
T3264 6784:798 JLINK_WriteReg(CFBP, 0x00000000)  returns 0x00 (0000ms, 36171ms total)
T3264 6784:798 JLINK_SetBPEx(Addr = 0x20000000, Type = 0xFFFFFFF2)  returns 0x00000009 (0000ms, 36171ms total)
T3264 6784:798 JLINK_Go() -- CPU_ReadMem(4 bytes @ 0xE0001000) -- CPU_WriteMem(4 bytes @ 0xE0001000) (0006ms, 36177ms total)
T3264 6784:804 JLINK_IsHalted()  returns FALSE (0001ms, 36178ms total)
T3264 6784:806 JLINK_IsHalted()  returns FALSE (0000ms, 36177ms total)
T3264 6784:807 JLINK_IsHalted()  returns FALSE (0001ms, 36178ms total)
T3264 6784:809 JLINK_IsHalted()  returns FALSE (0000ms, 36177ms total)
T3264 6784:810 JLINK_IsHalted()  returns FALSE (0001ms, 36178ms total)
T3264 6784:812 JLINK_IsHalted()  returns FALSE (0001ms, 36178ms total)
T3264 6784:814 JLINK_IsHalted()  returns FALSE (0001ms, 36178ms total)
T3264 6784:816 JLINK_IsHalted()  returns FALSE (0001ms, 36178ms total)
T3264 6784:818 JLINK_IsHalted()  returns FALSE (0001ms, 36178ms total)
T3264 6784:820 JLINK_IsHalted()  returns FALSE (0000ms, 36177ms total)
T3264 6784:821 JLINK_IsHalted()  returns FALSE (0002ms, 36179ms total)
T3264 6784:824 JLINK_IsHalted()  returns FALSE (0001ms, 36178ms total)
T3264 6784:826 JLINK_IsHalted() -- CPU_ReadMem(2 bytes @ 0x20000000)  returns TRUE (0005ms, 36182ms total)
T3264 6784:831 JLINK_ReadReg(R15 (PC))  returns 0x20000000 (0000ms, 36177ms total)
T3264 6784:831 JLINK_ClrBPEx(BPHandle = 0x00000009)  returns 0x00 (0000ms, 36177ms total)
T3264 6784:831 JLINK_ReadReg(R0)  returns 0x00000000 (0000ms, 36177ms total)
T3264 6784:831 JLINK_WriteReg(R0, 0x08002000)  returns 0x00 (0000ms, 36177ms total)
T3264 6784:831 JLINK_WriteReg(R1, 0x00000800)  returns 0x00 (0000ms, 36177ms total)
T3264 6784:831 JLINK_WriteReg(R2, 0x000000FF)  returns 0x00 (0000ms, 36177ms total)
T3264 6784:831 JLINK_WriteReg(R3, 0x00000000)  returns 0x00 (0000ms, 36177ms total)
T3264 6784:831 JLINK_WriteReg(R4, 0x00000000)  returns 0x00 (0000ms, 36177ms total)
T3264 6784:831 JLINK_WriteReg(R5, 0x00000000)  returns 0x00 (0000ms, 36177ms total)
T3264 6784:831 JLINK_WriteReg(R6, 0x00000000)  returns 0x00 (0000ms, 36177ms total)
T3264 6784:831 JLINK_WriteReg(R7, 0x00000000)  returns 0x00 (0001ms, 36178ms total)
T3264 6784:832 JLINK_WriteReg(R8, 0x00000000)  returns 0x00 (0000ms, 36178ms total)
T3264 6784:832 JLINK_WriteReg(R9, 0x20000110)  returns 0x00 (0000ms, 36178ms total)
T3264 6784:832 JLINK_WriteReg(R10, 0x00000000)  returns 0x00 (0000ms, 36178ms total)
T3264 6784:832 JLINK_WriteReg(R11, 0x00000000)  returns 0x00 (0000ms, 36178ms total)
T3264 6784:832 JLINK_WriteReg(R12, 0x00000000)  returns 0x00 (0000ms, 36178ms total)
T3264 6784:832 JLINK_WriteReg(R13 (SP), 0x20001000)  returns 0x00 (0000ms, 36178ms total)
T3264 6784:832 JLINK_WriteReg(R14, 0x20000001)  returns 0x00 (0000ms, 36178ms total)
T3264 6784:832 JLINK_WriteReg(R15 (PC), 0x2000004A)  returns 0x00 (0000ms, 36178ms total)
T3264 6784:832 JLINK_WriteReg(XPSR, 0x01000000)  returns 0x00 (0000ms, 36178ms total)
T3264 6784:832 JLINK_WriteReg(MSP, 0x20001000)  returns 0x00 (0000ms, 36178ms total)
T3264 6784:832 JLINK_WriteReg(PSP, 0x20001000)  returns 0x00 (0000ms, 36178ms total)
T3264 6784:832 JLINK_WriteReg(CFBP, 0x00000000)  returns 0x00 (0000ms, 36178ms total)
T3264 6784:832 JLINK_SetBPEx(Addr = 0x20000000, Type = 0xFFFFFFF2)  returns 0x0000000A (0000ms, 36178ms total)
T3264 6784:832 JLINK_Go() -- CPU_ReadMem(4 bytes @ 0xE0001000) -- CPU_WriteMem(4 bytes @ 0xE0001000) (0005ms, 36183ms total)
T3264 6784:837 JLINK_IsHalted() -- CPU_ReadMem(2 bytes @ 0x20000000)  returns TRUE (0006ms, 36189ms total)
T3264 6784:843 JLINK_ReadReg(R15 (PC))  returns 0x20000000 (0000ms, 36183ms total)
T3264 6784:843 JLINK_ClrBPEx(BPHandle = 0x0000000A)  returns 0x00 (0000ms, 36183ms total)
T3264 6784:843 JLINK_ReadReg(R0)  returns 0x00000001 (0000ms, 36183ms total)
T3264 6784:843 JLINK_WriteReg(R0, 0x08002000)  returns 0x00 (0000ms, 36183ms total)
T3264 6784:843 JLINK_WriteReg(R1, 0x00000800)  returns 0x00 (0000ms, 36183ms total)
T3264 6784:843 JLINK_WriteReg(R2, 0x000000FF)  returns 0x00 (0000ms, 36183ms total)
T3264 6784:843 JLINK_WriteReg(R3, 0x00000000)  returns 0x00 (0000ms, 36183ms total)
T3264 6784:843 JLINK_WriteReg(R4, 0x00000000)  returns 0x00 (0000ms, 36183ms total)
T3264 6784:843 JLINK_WriteReg(R5, 0x00000000)  returns 0x00 (0000ms, 36183ms total)
T3264 6784:843 JLINK_WriteReg(R6, 0x00000000)  returns 0x00 (0000ms, 36183ms total)
T3264 6784:843 JLINK_WriteReg(R7, 0x00000000)  returns 0x00 (0000ms, 36183ms total)
T3264 6784:843 JLINK_WriteReg(R8, 0x00000000)  returns 0x00 (0000ms, 36183ms total)
T3264 6784:843 JLINK_WriteReg(R9, 0x20000110)  returns 0x00 (0000ms, 36183ms total)
T3264 6784:843 JLINK_WriteReg(R10, 0x00000000)  returns 0x00 (0000ms, 36183ms total)
T3264 6784:843 JLINK_WriteReg(R11, 0x00000000)  returns 0x00 (0000ms, 36183ms total)
T3264 6784:843 JLINK_WriteReg(R12, 0x00000000)  returns 0x00 (0000ms, 36183ms total)
T3264 6784:843 JLINK_WriteReg(R13 (SP), 0x20001000)  returns 0x00 (0000ms, 36183ms total)
T3264 6784:843 JLINK_WriteReg(R14, 0x20000001)  returns 0x00 (0000ms, 36183ms total)
T3264 6784:843 JLINK_WriteReg(R15 (PC), 0x20000084)  returns 0x00 (0000ms, 36183ms total)
T3264 6784:843 JLINK_WriteReg(XPSR, 0x01000000)  returns 0x00 (0000ms, 36183ms total)
T3264 6784:843 JLINK_WriteReg(MSP, 0x20001000)  returns 0x00 (0000ms, 36183ms total)
T3264 6784:843 JLINK_WriteReg(PSP, 0x20001000)  returns 0x00 (0000ms, 36183ms total)
T3264 6784:843 JLINK_WriteReg(CFBP, 0x00000000)  returns 0x00 (0000ms, 36183ms total)
T3264 6784:843 JLINK_SetBPEx(Addr = 0x20000000, Type = 0xFFFFFFF2)  returns 0x0000000B (0000ms, 36183ms total)
T3264 6784:843 JLINK_Go() -- CPU_ReadMem(4 bytes @ 0xE0001000) -- CPU_WriteMem(4 bytes @ 0xE0001000) (0005ms, 36188ms total)
T3264 6784:848 JLINK_IsHalted()  returns FALSE (0001ms, 36189ms total)
T3264 6784:851 JLINK_IsHalted()  returns FALSE (0001ms, 36189ms total)
T3264 6784:853 JLINK_IsHalted()  returns FALSE (0001ms, 36189ms total)
T3264 6784:855 JLINK_IsHalted()  returns FALSE (0001ms, 36189ms total)
T3264 6784:857 JLINK_IsHalted()  returns FALSE (0001ms, 36189ms total)
T3264 6784:859 JLINK_IsHalted()  returns FALSE (0001ms, 36189ms total)
T3264 6784:861 JLINK_IsHalted()  returns FALSE (0001ms, 36189ms total)
T3264 6784:863 JLINK_IsHalted()  returns FALSE (0001ms, 36189ms total)
T3264 6784:865 JLINK_IsHalted()  returns FALSE (0001ms, 36189ms total)
T3264 6784:867 JLINK_IsHalted()  returns FALSE (0001ms, 36189ms total)
T3264 6784:869 JLINK_IsHalted()  returns FALSE (0001ms, 36189ms total)
T3264 6784:871 JLINK_IsHalted() -- CPU_ReadMem(2 bytes @ 0x20000000)  returns TRUE (0006ms, 36194ms total)
T3264 6784:877 JLINK_ReadReg(R15 (PC))  returns 0x20000000 (0000ms, 36188ms total)
T3264 6784:877 JLINK_ClrBPEx(BPHandle = 0x0000000B)  returns 0x00 (0000ms, 36188ms total)
T3264 6784:877 JLINK_ReadReg(R0)  returns 0x00000000 (0000ms, 36188ms total)
T3264 6784:877 JLINK_WriteReg(R0, 0x08002800)  returns 0x00 (0000ms, 36188ms total)
T3264 6784:877 JLINK_WriteReg(R1, 0x00000800)  returns 0x00 (0000ms, 36188ms total)
T3264 6784:877 JLINK_WriteReg(R2, 0x000000FF)  returns 0x00 (0000ms, 36188ms total)
T3264 6784:877 JLINK_WriteReg(R3, 0x00000000)  returns 0x00 (0000ms, 36188ms total)
T3264 6784:877 JLINK_WriteReg(R4, 0x00000000)  returns 0x00 (0000ms, 36188ms total)
T3264 6784:877 JLINK_WriteReg(R5, 0x00000000)  returns 0x00 (0000ms, 36188ms total)
T3264 6784:877 JLINK_WriteReg(R6, 0x00000000)  returns 0x00 (0000ms, 36188ms total)
T3264 6784:877 JLINK_WriteReg(R7, 0x00000000)  returns 0x00 (0000ms, 36188ms total)
T3264 6784:877 JLINK_WriteReg(R8, 0x00000000)  returns 0x00 (0000ms, 36188ms total)
T3264 6784:877 JLINK_WriteReg(R9, 0x20000110)  returns 0x00 (0000ms, 36188ms total)
T3264 6784:877 JLINK_WriteReg(R10, 0x00000000)  returns 0x00 (0000ms, 36188ms total)
T3264 6784:877 JLINK_WriteReg(R11, 0x00000000)  returns 0x00 (0000ms, 36188ms total)
T3264 6784:877 JLINK_WriteReg(R12, 0x00000000)  returns 0x00 (0000ms, 36188ms total)
T3264 6784:877 JLINK_WriteReg(R13 (SP), 0x20001000)  returns 0x00 (0000ms, 36188ms total)
T3264 6784:877 JLINK_WriteReg(R14, 0x20000001)  returns 0x00 (0000ms, 36188ms total)
T3264 6784:877 JLINK_WriteReg(R15 (PC), 0x2000004A)  returns 0x00 (0000ms, 36188ms total)
T3264 6784:877 JLINK_WriteReg(XPSR, 0x01000000)  returns 0x00 (0000ms, 36188ms total)
T3264 6784:877 JLINK_WriteReg(MSP, 0x20001000)  returns 0x00 (0000ms, 36188ms total)
T3264 6784:878 JLINK_WriteReg(PSP, 0x20001000)  returns 0x00 (0000ms, 36188ms total)
T3264 6784:878 JLINK_WriteReg(CFBP, 0x00000000)  returns 0x00 (0000ms, 36188ms total)
T3264 6784:878 JLINK_SetBPEx(Addr = 0x20000000, Type = 0xFFFFFFF2)  returns 0x0000000C (0000ms, 36188ms total)
T3264 6784:878 JLINK_Go() -- CPU_ReadMem(4 bytes @ 0xE0001000) -- CPU_WriteMem(4 bytes @ 0xE0001000) (0005ms, 36193ms total)
T3264 6784:883 JLINK_IsHalted() -- CPU_ReadMem(2 bytes @ 0x20000000)  returns TRUE (0005ms, 36198ms total)
T3264 6784:888 JLINK_ReadReg(R15 (PC))  returns 0x20000000 (0000ms, 36193ms total)
T3264 6784:888 JLINK_ClrBPEx(BPHandle = 0x0000000C)  returns 0x00 (0000ms, 36193ms total)
T3264 6784:888 JLINK_ReadReg(R0)  returns 0x00000001 (0000ms, 36193ms total)
T3264 6784:888 JLINK_WriteReg(R0, 0x08002800)  returns 0x00 (0000ms, 36193ms total)
T3264 6784:888 JLINK_WriteReg(R1, 0x00000800)  returns 0x00 (0000ms, 36193ms total)
T3264 6784:888 JLINK_WriteReg(R2, 0x000000FF)  returns 0x00 (0000ms, 36193ms total)
T3264 6784:888 JLINK_WriteReg(R3, 0x00000000)  returns 0x00 (0000ms, 36193ms total)
T3264 6784:888 JLINK_WriteReg(R4, 0x00000000)  returns 0x00 (0000ms, 36193ms total)
T3264 6784:888 JLINK_WriteReg(R5, 0x00000000)  returns 0x00 (0000ms, 36193ms total)
T3264 6784:888 JLINK_WriteReg(R6, 0x00000000)  returns 0x00 (0000ms, 36193ms total)
T3264 6784:888 JLINK_WriteReg(R7, 0x00000000)  returns 0x00 (0000ms, 36193ms total)
T3264 6784:888 JLINK_WriteReg(R8, 0x00000000)  returns 0x00 (0000ms, 36193ms total)
T3264 6784:888 JLINK_WriteReg(R9, 0x20000110)  returns 0x00 (0000ms, 36193ms total)
T3264 6784:888 JLINK_WriteReg(R10, 0x00000000)  returns 0x00 (0000ms, 36193ms total)
T3264 6784:888 JLINK_WriteReg(R11, 0x00000000)  returns 0x00 (0000ms, 36193ms total)
T3264 6784:888 JLINK_WriteReg(R12, 0x00000000)  returns 0x00 (0000ms, 36193ms total)
T3264 6784:888 JLINK_WriteReg(R13 (SP), 0x20001000)  returns 0x00 (0000ms, 36193ms total)
T3264 6784:888 JLINK_WriteReg(R14, 0x20000001)  returns 0x00 (0000ms, 36193ms total)
T3264 6784:888 JLINK_WriteReg(R15 (PC), 0x20000084)  returns 0x00 (0000ms, 36193ms total)
T3264 6784:888 JLINK_WriteReg(XPSR, 0x01000000)  returns 0x00 (0000ms, 36193ms total)
T3264 6784:888 JLINK_WriteReg(MSP, 0x20001000)  returns 0x00 (0000ms, 36193ms total)
T3264 6784:888 JLINK_WriteReg(PSP, 0x20001000)  returns 0x00 (0000ms, 36193ms total)
T3264 6784:888 JLINK_WriteReg(CFBP, 0x00000000)  returns 0x00 (0000ms, 36193ms total)
T3264 6784:888 JLINK_SetBPEx(Addr = 0x20000000, Type = 0xFFFFFFF2)  returns 0x0000000D (0000ms, 36193ms total)
T3264 6784:888 JLINK_Go() -- CPU_ReadMem(4 bytes @ 0xE0001000) -- CPU_WriteMem(4 bytes @ 0xE0001000) (0006ms, 36199ms total)
T3264 6784:894 JLINK_IsHalted()  returns FALSE (0001ms, 36200ms total)
T3264 6784:896 JLINK_IsHalted()  returns FALSE (0001ms, 36200ms total)
T3264 6784:898 JLINK_IsHalted()  returns FALSE (0001ms, 36200ms total)
T3264 6784:900 JLINK_IsHalted()  returns FALSE (0001ms, 36200ms total)
T3264 6784:902 JLINK_IsHalted()  returns FALSE (0001ms, 36200ms total)
T3264 6784:904 JLINK_IsHalted()  returns FALSE (0001ms, 36200ms total)
T3264 6784:906 JLINK_IsHalted()  returns FALSE (0001ms, 36200ms total)
T3264 6784:908 JLINK_IsHalted()  returns FALSE (0001ms, 36200ms total)
T3264 6784:910 JLINK_IsHalted()  returns FALSE (0001ms, 36200ms total)
T3264 6784:912 JLINK_IsHalted()  returns FALSE (0001ms, 36200ms total)
T3264 6784:914 JLINK_IsHalted()  returns FALSE (0001ms, 36200ms total)
T3264 6784:916 JLINK_IsHalted() -- CPU_ReadMem(2 bytes @ 0x20000000)  returns TRUE (0005ms, 36204ms total)
T3264 6784:921 JLINK_ReadReg(R15 (PC))  returns 0x20000000 (0000ms, 36199ms total)
T3264 6784:921 JLINK_ClrBPEx(BPHandle = 0x0000000D)  returns 0x00 (0000ms, 36199ms total)
T3264 6784:921 JLINK_ReadReg(R0)  returns 0x00000000 (0000ms, 36199ms total)
T3264 6784:921 JLINK_WriteReg(R0, 0x08003000)  returns 0x00 (0000ms, 36199ms total)
T3264 6784:921 JLINK_WriteReg(R1, 0x00000800)  returns 0x00 (0000ms, 36199ms total)
T3264 6784:921 JLINK_WriteReg(R2, 0x000000FF)  returns 0x00 (0000ms, 36199ms total)
T3264 6784:921 JLINK_WriteReg(R3, 0x00000000)  returns 0x00 (0000ms, 36199ms total)
T3264 6784:921 JLINK_WriteReg(R4, 0x00000000)  returns 0x00 (0000ms, 36199ms total)
T3264 6784:921 JLINK_WriteReg(R5, 0x00000000)  returns 0x00 (0000ms, 36199ms total)
T3264 6784:921 JLINK_WriteReg(R6, 0x00000000)  returns 0x00 (0000ms, 36199ms total)
T3264 6784:921 JLINK_WriteReg(R7, 0x00000000)  returns 0x00 (0000ms, 36199ms total)
T3264 6784:921 JLINK_WriteReg(R8, 0x00000000)  returns 0x00 (0000ms, 36199ms total)
T3264 6784:921 JLINK_WriteReg(R9, 0x20000110)  returns 0x00 (0000ms, 36199ms total)
T3264 6784:921 JLINK_WriteReg(R10, 0x00000000)  returns 0x00 (0000ms, 36199ms total)
T3264 6784:921 JLINK_WriteReg(R11, 0x00000000)  returns 0x00 (0000ms, 36199ms total)
T3264 6784:921 JLINK_WriteReg(R12, 0x00000000)  returns 0x00 (0000ms, 36199ms total)
T3264 6784:921 JLINK_WriteReg(R13 (SP), 0x20001000)  returns 0x00 (0000ms, 36199ms total)
T3264 6784:921 JLINK_WriteReg(R14, 0x20000001)  returns 0x00 (0000ms, 36199ms total)
T3264 6784:921 JLINK_WriteReg(R15 (PC), 0x2000004A)  returns 0x00 (0000ms, 36199ms total)
T3264 6784:921 JLINK_WriteReg(XPSR, 0x01000000)  returns 0x00 (0000ms, 36199ms total)
T3264 6784:921 JLINK_WriteReg(MSP, 0x20001000)  returns 0x00 (0000ms, 36199ms total)
T3264 6784:921 JLINK_WriteReg(PSP, 0x20001000)  returns 0x00 (0000ms, 36199ms total)
T3264 6784:921 JLINK_WriteReg(CFBP, 0x00000000)  returns 0x00 (0000ms, 36199ms total)
T3264 6784:921 JLINK_SetBPEx(Addr = 0x20000000, Type = 0xFFFFFFF2)  returns 0x0000000E (0000ms, 36199ms total)
T3264 6784:921 JLINK_Go() -- CPU_ReadMem(4 bytes @ 0xE0001000) -- CPU_WriteMem(4 bytes @ 0xE0001000) (0008ms, 36207ms total)
T3264 6784:929 JLINK_IsHalted() -- CPU_ReadMem(2 bytes @ 0x20000000)  returns TRUE (0005ms, 36212ms total)
T3264 6784:934 JLINK_ReadReg(R15 (PC))  returns 0x20000000 (0000ms, 36207ms total)
T3264 6784:934 JLINK_ClrBPEx(BPHandle = 0x0000000E)  returns 0x00 (0000ms, 36207ms total)
T3264 6784:934 JLINK_ReadReg(R0)  returns 0x00000001 (0000ms, 36207ms total)
T3264 6784:934 JLINK_WriteReg(R0, 0x08003000)  returns 0x00 (0000ms, 36207ms total)
T3264 6784:934 JLINK_WriteReg(R1, 0x00000800)  returns 0x00 (0000ms, 36207ms total)
T3264 6784:934 JLINK_WriteReg(R2, 0x000000FF)  returns 0x00 (0000ms, 36207ms total)
T3264 6784:934 JLINK_WriteReg(R3, 0x00000000)  returns 0x00 (0000ms, 36207ms total)
T3264 6784:934 JLINK_WriteReg(R4, 0x00000000)  returns 0x00 (0000ms, 36207ms total)
T3264 6784:934 JLINK_WriteReg(R5, 0x00000000)  returns 0x00 (0000ms, 36207ms total)
T3264 6784:934 JLINK_WriteReg(R6, 0x00000000)  returns 0x00 (0000ms, 36207ms total)
T3264 6784:934 JLINK_WriteReg(R7, 0x00000000)  returns 0x00 (0000ms, 36207ms total)
T3264 6784:934 JLINK_WriteReg(R8, 0x00000000)  returns 0x00 (0000ms, 36207ms total)
T3264 6784:934 JLINK_WriteReg(R9, 0x20000110)  returns 0x00 (0000ms, 36207ms total)
T3264 6784:934 JLINK_WriteReg(R10, 0x00000000)  returns 0x00 (0000ms, 36207ms total)
T3264 6784:934 JLINK_WriteReg(R11, 0x00000000)  returns 0x00 (0000ms, 36207ms total)
T3264 6784:934 JLINK_WriteReg(R12, 0x00000000)  returns 0x00 (0000ms, 36207ms total)
T3264 6784:934 JLINK_WriteReg(R13 (SP), 0x20001000)  returns 0x00 (0000ms, 36207ms total)
T3264 6784:934 JLINK_WriteReg(R14, 0x20000001)  returns 0x00 (0000ms, 36207ms total)
T3264 6784:934 JLINK_WriteReg(R15 (PC), 0x20000084)  returns 0x00 (0000ms, 36207ms total)
T3264 6784:934 JLINK_WriteReg(XPSR, 0x01000000)  returns 0x00 (0000ms, 36207ms total)
T3264 6784:934 JLINK_WriteReg(MSP, 0x20001000)  returns 0x00 (0000ms, 36207ms total)
T3264 6784:934 JLINK_WriteReg(PSP, 0x20001000)  returns 0x00 (0000ms, 36207ms total)
T3264 6784:934 JLINK_WriteReg(CFBP, 0x00000000)  returns 0x00 (0000ms, 36207ms total)
T3264 6784:934 JLINK_SetBPEx(Addr = 0x20000000, Type = 0xFFFFFFF2)  returns 0x0000000F (0000ms, 36207ms total)
T3264 6784:934 JLINK_Go() -- CPU_ReadMem(4 bytes @ 0xE0001000) -- CPU_WriteMem(4 bytes @ 0xE0001000) (0005ms, 36212ms total)
T3264 6784:939 JLINK_IsHalted()  returns FALSE (0001ms, 36213ms total)
T3264 6784:943 JLINK_IsHalted()  returns FALSE (0002ms, 36214ms total)
T3264 6784:947 JLINK_IsHalted()  returns FALSE (0002ms, 36214ms total)
T3264 6784:950 JLINK_IsHalted()  returns FALSE (0001ms, 36213ms total)
T3264 6784:952 JLINK_IsHalted()  returns FALSE (0001ms, 36213ms total)
T3264 6784:954 JLINK_IsHalted()  returns FALSE (0001ms, 36213ms total)
T3264 6784:956 JLINK_IsHalted()  returns FALSE (0001ms, 36213ms total)
T3264 6784:958 JLINK_IsHalted()  returns FALSE (0001ms, 36213ms total)
T3264 6784:960 JLINK_IsHalted()  returns FALSE (0001ms, 36213ms total)
T3264 6784:962 JLINK_IsHalted() -- CPU_ReadMem(2 bytes @ 0x20000000)  returns TRUE (0005ms, 36217ms total)
T3264 6784:967 JLINK_ReadReg(R15 (PC))  returns 0x20000000 (0000ms, 36212ms total)
T3264 6784:967 JLINK_ClrBPEx(BPHandle = 0x0000000F)  returns 0x00 (0000ms, 36212ms total)
T3264 6784:967 JLINK_ReadReg(R0)  returns 0x00000000 (0000ms, 36212ms total)
T3264 6784:967 JLINK_WriteReg(R0, 0x08003800)  returns 0x00 (0000ms, 36212ms total)
T3264 6784:967 JLINK_WriteReg(R1, 0x00000800)  returns 0x00 (0000ms, 36212ms total)
T3264 6784:967 JLINK_WriteReg(R2, 0x000000FF)  returns 0x00 (0000ms, 36212ms total)
T3264 6784:967 JLINK_WriteReg(R3, 0x00000000)  returns 0x00 (0000ms, 36212ms total)
T3264 6784:967 JLINK_WriteReg(R4, 0x00000000)  returns 0x00 (0000ms, 36212ms total)
T3264 6784:967 JLINK_WriteReg(R5, 0x00000000)  returns 0x00 (0000ms, 36212ms total)
T3264 6784:967 JLINK_WriteReg(R6, 0x00000000)  returns 0x00 (0000ms, 36212ms total)
T3264 6784:967 JLINK_WriteReg(R7, 0x00000000)  returns 0x00 (0000ms, 36212ms total)
T3264 6784:967 JLINK_WriteReg(R8, 0x00000000)  returns 0x00 (0000ms, 36212ms total)
T3264 6784:967 JLINK_WriteReg(R9, 0x20000110)  returns 0x00 (0000ms, 36212ms total)
T3264 6784:967 JLINK_WriteReg(R10, 0x00000000)  returns 0x00 (0000ms, 36212ms total)
T3264 6784:967 JLINK_WriteReg(R11, 0x00000000)  returns 0x00 (0000ms, 36212ms total)
T3264 6784:967 JLINK_WriteReg(R12, 0x00000000)  returns 0x00 (0000ms, 36212ms total)
T3264 6784:967 JLINK_WriteReg(R13 (SP), 0x20001000)  returns 0x00 (0000ms, 36212ms total)
T3264 6784:967 JLINK_WriteReg(R14, 0x20000001)  returns 0x00 (0000ms, 36212ms total)
T3264 6784:967 JLINK_WriteReg(R15 (PC), 0x2000004A)  returns 0x00 (0000ms, 36212ms total)
T3264 6784:967 JLINK_WriteReg(XPSR, 0x01000000)  returns 0x00 (0000ms, 36212ms total)
T3264 6784:967 JLINK_WriteReg(MSP, 0x20001000)  returns 0x00 (0000ms, 36212ms total)
T3264 6784:967 JLINK_WriteReg(PSP, 0x20001000)  returns 0x00 (0000ms, 36212ms total)
T3264 6784:967 JLINK_WriteReg(CFBP, 0x00000000)  returns 0x00 (0000ms, 36212ms total)
T3264 6784:967 JLINK_SetBPEx(Addr = 0x20000000, Type = 0xFFFFFFF2)  returns 0x00000010 (0000ms, 36212ms total)
T3264 6784:967 JLINK_Go() -- CPU_ReadMem(4 bytes @ 0xE0001000) -- CPU_WriteMem(4 bytes @ 0xE0001000) (0006ms, 36218ms total)
T3264 6784:973 JLINK_IsHalted() -- CPU_ReadMem(2 bytes @ 0x20000000)  returns TRUE (0004ms, 36222ms total)
T3264 6784:977 JLINK_ReadReg(R15 (PC))  returns 0x20000000 (0000ms, 36218ms total)
T3264 6784:977 JLINK_ClrBPEx(BPHandle = 0x00000010)  returns 0x00 (0000ms, 36218ms total)
T3264 6784:977 JLINK_ReadReg(R0)  returns 0x00000001 (0000ms, 36218ms total)
T3264 6784:978 JLINK_WriteReg(R0, 0x08003800)  returns 0x00 (0000ms, 36219ms total)
T3264 6784:978 JLINK_WriteReg(R1, 0x00000800)  returns 0x00 (0000ms, 36219ms total)
T3264 6784:978 JLINK_WriteReg(R2, 0x000000FF)  returns 0x00 (0000ms, 36219ms total)
T3264 6784:978 JLINK_WriteReg(R3, 0x00000000)  returns 0x00 (0000ms, 36219ms total)
